Time [s],Value,Parity Error,Framing Error
0.880727020000000,\xBD,,Error
0.881816180000000,\x84,,Error
0.882905360000000,7,,Error
0.883930460000000,\x9C,,Error
0.884955560000000,\xF9,,
0.885948620000000,o,,Error
0.887037800000000,H,,
0.888030860000000,\xEE,,Error
0.889055960000000,\x04,,Error
0.890145140000000,4,,Error
0.891202280000000,C,,Error
0.892259420000000,!,,Error
0.893444680000000,Y,,Error
0.894501820000000, ,,Error
0.895526920000000,\xF9,,Error
0.896552020000000,\xA4,,Error
0.897641200000000,~,,Error
0.898666300000000,(,,Error
0.899755480000000,\xB6,,
0.900812620000000,\t,,Error
0.901869740000000,\x84,,Error
0.902926880000000,I,,Error
0.904016060000000,C,,
0.905009120000000,\xE6,,Error
0.906034220000000,\xA4,,Error
0.907059320000000,\xDD,,Error
0.908116460000000,Y,,Error
0.909173600000000,\xAD,,Error
0.910198700000000,\xB4,,Error
0.911287880000000,\xA0,,
0.912280940000000,o,,Error
0.913306040000000,\xC0,,
0.914299120000000,>,,Error
0.915324220000000, ,,Error
0.916381360000000,\x07,,Error
0.917470520000000,\n,,Error
0.918527660000000,\x10,,Error
0.919552760000000,\xDD,,Error
0.920577860000000,\x86,,Error
0.921635000000000,C,,
0.922628080000000,\xBF,,Error
0.923653180000000,`,,Error
0.924678280000000,\xD9,,Error
0.925703380000000,\x90,,Error
0.926760520000000,\n,,
0.927753580000000,\xF6,,Error
0.928778680000000,4,,Error
0.929803780000000,\xF9,,Error
0.930828880000000,\xA4,,Error
0.931886020000000,\x01,,
0.932879100000000,\xBE,,Error
0.933904200000000,\x14,,Error
0.934929300000000,\xF9,,Error
0.935986440000000,Y,,Error
0.937043580000000,\xAD,,Error
0.938068680000000,\xB4,,Error
0.939157840000000,\xA0,,
0.940150920000000,o,,Error
0.941176020000000,\xC0,,
0.942169080000000,>,,Error
0.943194180000000,\xA4,,Error
0.944251320000000,\x03,,Error
0.945340500000000,C,,Error
0.946397640000000, ,,Error
0.947486800000000,\xA4,,Error
0.948543940000000,\n,,
0.949537000000000,o,,Error
0.950562100000000, ,,Error
0.951587220000000,\xD9,,
0.952580280000000,A,,Error
0.953669460000000,\x01,,
0.954662520000000,g,,Error
0.955687620000000, ,,Error
0.956776800000000,$,,Error
0.957833920000000,C,,Error
0.958891060000000,\x88,,Error
0.959948200000000,+,,Error
0.961037380000000,B,,Error
0.962094520000000,\xA4,,Error
0.963183680000000,\x16,,
0.964176760000000,\xC9,,
0.965169820000000,4,,
0.966162880000000,\t,,
0.967155960000000,>,,Error
0.968181060000000,\x1C,,Error
0.969270220000000,\x96,,
0.970263300000000,\xED,,
0.971288400000000,J,,
0.972281460000000,\xBF,,Error
0.973306560000000,\xB4,,Error
0.974363700000000,\0,,Error
0.975484920000000,~,,Error
0.976510020000000,\x10,,Error
0.977535120000000,\xDD,,
0.978528180000000,B,,Error
0.979617360000000,\x08,,
0.980610420000000,\xAE,,Error
0.981635520000000, ,,Error
0.982692660000000,\x02,,Error
0.983781840000000,I,,
0.984774900000000,f,,Error
0.985800000000000,\x14,,Error
0.986985280000000,\x08,,Error
0.988042420000000,\xB4,,Error
0.989227700000000,\x0B,,
0.990220760000000,\xB7,,Error
0.991245860000000,L,,Error
0.992303000000000,O,,
0.993296060000000,\x84,,Error
0.994385240000000,7,,Error
0.995410340000000,\x9C,,Error
0.996435440000000,\xF9,,
0.997428520000000,o,,Error
0.998517680000000,@,,Error
0.999574820000000,0,,Error
1.000599920000000,\xD9,,
1.001625020000000,\x10,,Error
1.002714200000000,\xEF,,Error
1.003739300000000,d,,Error
1.004796440000000,\x08,,Error
1.005885600000000,B,,Error
1.006942740000000,\x10,,Error
1.007999880000000,\x0B,,
1.008992940000000,\x86,,Error
1.010082120000000,6,,Error
1.011107220000000,\x04,,Error
1.012196400000000,&,,Error
1.013253540000000,\0,,
1.014246600000000,\xB6,,Error
1.015271700000000,\x84,,Error
1.016328840000000,+,,
1.017321900000000,\x90,,
1.018379040000000,\t,,Error
1.019436180000000,\xE9,,Error
1.020461280000000,\xB0,,Error
1.021550460000000, ,,
1.022575560000000,\xE6,,Error
1.023600660000000,\xF1,,Error
1.024785940000000,\xC0,,
1.025779000000000,>,,Error
1.026804100000000,\xA4,,Error
1.027861240000000,\x03,,Error
1.028950420000000,C,,Error
1.030007540000000, ,,Error
1.031096720000000,\xA4,,Error
1.032153860000000,\n,,
1.033146920000000,o,,Error
1.034172020000000, ,,Error
1.035197140000000,\xD9,,
1.036190200000000,A,,Error
1.037279380000000,\x01,,
1.038272440000000,g,,Error
1.039297540000000, ,,Error
1.040386720000000,$,,Error
1.041443860000000,C,,Error
1.042500980000000,\x88,,Error
1.043558120000000,+,,Error
1.044647300000000,B,,Error
1.045704440000000,\xA4,,Error
1.046793600000000,\x16,,
1.047786680000000,\xC9,,
1.048779740000000,4,,
1.049772800000000,\t,,
1.050765880000000,>,,Error
1.051790980000000,\x1C,,Error
1.052880160000000,\x96,,
1.053873220000000,\xED,,
1.054898320000000,K,,
1.055891380000000,\xF7,,Error
1.056916500000000, ,,Error
1.058005660000000,4,,Error
1.059094840000000,\xB6,,Error
1.060119940000000,\x84,,Error
1.061209100000000,\x82,,Error
1.062298280000000,\xB7,,Error
1.063323380000000,\x94,,Error
1.064380520000000,\x08,,Error
1.065501720000000,\xEF,,Error
1.066526820000000,0,,Error
1.067616000000000,4,,
1.068673140000000,B,,Error
1.069730280000000,\x84,,Error
1.070915540000000,@,,
1.071908620000000,\xB6,,Error
1.072933720000000,\x84,,Error
1.073990860000000,J,,Error
1.075080020000000,\xD1,,
1.076073100000000,|,,Error
1.077098200000000,\xA1,,Error
1.078155340000000,i,,
1.079148400000000,\xA0,,
1.080237580000000,\xEE,,Error
1.081262680000000,],,Error
1.082447960000000,\x01,,
1.083441020000000,\xAF,,Error
1.084466120000000,\x84,,Error
1.085555300000000,\x02,,Error
1.086644460000000,\xF6,,Error
1.087669580000000,0,,Error
1.088758740000000,2,,Error
1.089847920000000,\xB6,,Error
1.090873020000000,\x04,,Error
1.091898120000000,\xDD,,Error
1.093051360000000,\xE6,,Error
1.094076460000000,$,,Error
1.095133600000000,\x08,,Error
1.096254800000000,\xB7,,Error
1.097279900000000,\x81,,Error
1.098305020000000,\xDD,,Error
1.099330120000000,4,,
1.100387240000000,@,,
1.101380320000000,\xAE,,Error
1.102405420000000,`,,Error
1.103462560000000,n,,Error
1.104519700000000,4,,
1.105512760000000,\t,,
1.106505840000000,>,,Error
1.107530940000000,\x1C,,Error
1.108620100000000,\x96,,
1.109613180000000,\xED,,Error
1.110670300000000,/,,Error
1.111695420000000,\x80,,Error
1.112720520000000,\xD9,,
1.113745620000000,\xA4,,Error
1.114834780000000,\xB6,,Error
1.115859900000000,4,,Error
1.116917020000000,J,,
1.117910100000000,4,,Error
1.118999260000000,\xF7,,Error
1.120024380000000, ,,Error
1.121113540000000,\x92,,Error
1.122170680000000,\x08,,Error
1.123227820000000,0,,Error
1.124252920000000,\xFD,,
1.125278020000000,4,,Error
1.126367200000000,\xF7,,Error
1.127392300000000,5,,Error
1.128449440000000,\x02,,Error
1.129570640000000,\xBE,,Error
1.130595740000000,L,,Error
1.131652880000000,O,,
1.132645940000000,\x84,,Error
1.133735120000000,7,,Error
1.134760220000000,\x9C,,Error
1.135785320000000,\xF9,,
1.136778400000000,o,,Error
1.137867560000000,@,,Error
1.138924700000000,\x90,,Error
1.139981840000000,K,,Error
1.141071000000000,B,,Error
1.142128140000000,%,,Error
1.143217320000000,\x04,,Error
1.144274460000000,K,,Error
1.145331600000000,\xB0,,Error
1.146420760000000,\x04,,Error
1.147477900000000,K,,
1.148470960000000,g,,Error
1.149496080000000,\xA4,,Error
1.150585240000000,\x14,,Error
1.151642380000000,K,,
1.152635440000000,\xB6,,Error
1.153660540000000, ,,Error
1.154685660000000,\xF9,,Error
1.155806860000000,\x0B,,
1.156799920000000,\xB7,,Error
1.157825020000000,4,,Error
1.158850140000000,\x90,,Error
1.159907260000000,Y,,
1.160900340000000, ,,
1.161925440000000,\xE6,,Error
1.162950540000000,\xF1,,Error
1.164135820000000,\xC0,,
1.165128880000000,>,,Error
1.166153980000000,\x04,,Error
1.167339260000000,C,,
1.168332340000000,\xAF,,Error
1.169357440000000, ,,Error
1.170382540000000,\xF9,,Error
1.171503740000000,\x18,,
1.172496800000000,?,,Error
1.173521920000000,\x8C,,Error
1.174547020000000,\xDD,,
1.175540080000000,K,,
1.176533140000000,",,Error
1.177590280000000,\x03,,Error
1.178647420000000,5,,Error
1.179704560000000,\x01,,Error
1.180793740000000,@,,
1.181786800000000,6,,Error
1.182811900000000,\x94,,Error
1.183869040000000,\n,,
1.184862100000000,\x84,,Error
1.185951280000000,6,,Error
1.186976380000000,\xFD,,Error
1.188033520000000,k,,Error
1.189122700000000,\t,,
1.190115760000000,>,,Error
1.191140860000000,\x1C,,Error
1.192230040000000,\x96,,
1.193223100000000,\xED,,
1.194248200000000,B,,Error
1.195305340000000,4,,Error
1.196330440000000,\xD9,,Error
1.197355540000000,\xB2,,Error
1.198412680000000,I,,
1.199405760000000,\xF7,,Error
1.200430860000000,4,,Error
1.201520020000000,2,,Error
1.202609200000000,6,,Error
1.203634300000000,\xA8,,Error
1.204659400000000,\xDD,,Error
1.205684500000000, ,,Error
1.206741640000000,C,,Error
1.207798780000000,0,,Error
1.208855920000000,\x03,,
1.209848980000000,\x04,,
1.210906120000000,\x08,,
1.211899180000000,\xAE,,Error
1.212924300000000,\xA4,,Error
1.214013460000000,\x14,,
1.215006540000000,\xC9,,
1.215999600000000,4,,
1.216992660000000,\t,,
1.217985740000000,>,,Error
1.219010840000000,\x1C,,Error
1.220100020000000,\x96,,
1.221093080000000,\xED,,
1.222118180000000,B,,Error
1.223175320000000,4,,Error
1.224200420000000,\xD9,,Error
1.225225520000000,\xB2,,Error
1.226282660000000,I,,
1.227275720000000,\xF7,,Error
1.228300840000000,4,,Error
1.229390000000000,2,,Error
1.230479180000000,6,,Error
1.231504280000000,\xA8,,Error
1.232529380000000,\xDD,,Error
1.233554480000000, ,,Error
1.234611620000000,C,,Error
1.235668760000000,0,,Error
1.236725900000000,\x03,,
1.237718960000000,\x04,,
1.238776100000000,\x08,,
1.239769160000000,\xAE,,Error
1.240794260000000,\xA4,,Error
1.241883440000000,\x14,,
1.242876500000000,\xC9,,
1.243869580000000,4,,
1.244862640000000,\t,,
1.245855720000000,>,,Error
1.246880820000000,\x1C,,Error
1.247969980000000,\x96,,
1.248963060000000,m,,Error
1.250020200000000,\xEC,,Error
1.251045300000000,D,,Error
1.252070400000000,\xD9,,Error
1.253191600000000,\xD8,,
1.254184680000000,\xEE,,Error
1.255209780000000,\x80,,Error
1.256298960000000,\xB2,,Error
1.257356080000000,\x0B,,Error
1.258413220000000,],,Error
1.259470360000000,N,,Error
1.260559540000000,\x13,,
1.261552600000000,u,,Error
1.262577720000000,!,,Error
1.263602820000000,\xF9,,
1.264627920000000,6,,Error
1.265717100000000,\xBF,,Error
1.266742200000000,\xE5,,Error
1.267927480000000,\x03,,
1.268920540000000,\xE7,,Error
1.269945640000000,\x84,,Error
1.270970760000000,\xD9,,Error
1.272091960000000,\t,,Error
1.273149100000000,M,,
